
T6650 000:309 SEGGER J-Link V5.10h Log File (0001ms, 0266ms total)
T6650 000:309 DLL Compiled: Jan 21 2016 19:24:29 (0001ms, 0266ms total)
T6650 000:309 Logging started @ 2021-11-06 16:15 (0001ms, 0266ms total)
T6650 000:310 JLINK_SetWarnOutHandler(...) (0000ms, 0266ms total)
T6650 000:310 JLINK_OpenEx(...)
Firmware: J-Link ARM-OB STM32 compiled Aug 22 2012 19:52:04
Hardware: V7.00
S/N: 20090928
Feature(s): RDI,FlashDL,FlashBP,JFlash,GDBFull  returns O.K. (0263ms, 0529ms total)
T6650 000:573 JLINK_SetErrorOutHandler(...) (0000ms, 0529ms total)
T6650 000:573 JLINK_ExecCommand("ProjectFile = "C:\code\github\test3\PWM_Output\MDK-ARM\JLinkSettings.ini"", ...)  returns 0x00 (0001ms, 0530ms total)
T6650 000:580 JLINK_ExecCommand("Device = STM32F407ZGTx", ...)Device "STM32F407ZG" selected.  returns 0x00 (0023ms, 0553ms total)
T6650 000:603 JLINK_ExecCommand("DisableConnectionTimeout", ...)  returns 0x01 (0000ms, 0553ms total)
T6650 000:603 JLINK_GetHardwareVersion()  returns 0x11170 (0000ms, 0553ms total)
T6650 000:603 JLINK_GetDLLVersion()  returns 51008 (0000ms, 0553ms total)
T6650 000:603 JLINK_GetFirmwareString(...) (0000ms, 0553ms total)
T6650 000:636 JLINK_GetDLLVersion()  returns 51008 (0000ms, 0553ms total)
T6650 000:636 JLINK_GetCompileDateTime() (0000ms, 0553ms total)
T6650 000:642 JLINK_GetFirmwareString(...) (0000ms, 0553ms total)
T6650 000:648 JLINK_GetHardwareVersion()  returns 0x11170 (0000ms, 0553ms total)
T6650 000:670 JLINK_TIF_Select(JLINKARM_TIF_SWD)  returns 0x00 (0001ms, 0554ms total)
T6650 000:671 JLINK_SetSpeed(5000) (0000ms, 0554ms total)
T6650 000:671 JLINK_GetId() >0x108 TIF>Found SWD-DP with ID 0x2BA01477 >0x0D TIF> >0x28 TIF> >0x0D TIF> >0x28 TIF> >0x0D TIF> >0x28 TIF> >0x0D TIF> >0x28 TIF> >0x0D TIF> >0x21 TIF> >0x0D TIF> >0x28 TIF> >0x0D TIF> >0x28 TIF> >0x0D TIF> >0x28 TIF> >0x0D TIF> >0x21 TIF> >0x0D TIF> >0x21 TIF> >0x0D TIF> >0x28 TIF> >0x0D TIF> >0x21 TIF> >0x0D TIF> >0x21 TIF> >0x0D TIF> >0x28 TIF> >0x0D TIF> >0x21 TIF> >0x0D TIF> >0x21 TIF> >0x0D TIF> >0x28 TIF> >0x0D TIF> >0x21 TIF> >0x0D TIF> >0x21 TIF> >0x0D TIF>
 >0x28 TIF> >0x0D TIF> >0x21 TIF> >0x0D TIF> >0x21 TIF> >0x108 TIF>Found SWD-DP with ID 0x2BA01477 >0x0D TIF> >0x28 TIF> >0x0D TIF> >0x28 TIF> >0x0D TIF> >0x28 TIF> >0x0D TIF> >0x28 TIF> >0x0D TIF> >0x21 TIF> >0x0D TIF> >0x28 TIF> >0x0D TIF> >0x28 TIF> >0x0D TIF> >0x21 TIF> >0x0D TIF> >0x21 TIF> >0x0D TIF> >0x21 TIF> >0x0D TIF> >0x28 TIF> >0x0D TIF> >0x28 TIF> >0x0D TIF> >0x28 TIF> >0x0D TIF> >0x21 TIF> >0x0D TIF> >0x21 TIF> >0x0D TIF> >0x28 TIF> >0x0D TIF> >0x21 TIF> >0x0D TIF> >0x21 TIF>
Found Cortex-M4 r0p1, Little endian. -- CPU_ReadMem(4 bytes @ 0xE000EDF0) -- CPU_ReadMem(4 bytes @ 0xE0002000)FPUnit: 6 code (BP) slots and 2 literal slots -- CPU_ReadMem(4 bytes @ 0xE000EDFC) -- CPU_ReadMem(4 bytes @ 0xE0001000) -- CPU_WriteMem(4 bytes @ 0xE0001000) -- CPU_ReadMem(4 bytes @ 0xE000ED88) -- CPU_WriteMem(4 bytes @ 0xE000ED88) -- CPU_ReadMem(4 bytes @ 0xE000ED88) -- CPU_WriteMem(4 bytes @ 0xE000ED88)CoreSight components:ROMTbl 0 @ E00FF000 -- CPU_ReadMem(16 bytes @ 0xE00FF000)
 -- CPU_ReadMem(16 bytes @ 0xE000EFF0) -- CPU_ReadMem(16 bytes @ 0xE000EFE0)ROMTbl 0 [0]: FFF0F000, CID: B105E00D, PID: 000BB00C SCS -- CPU_ReadMem(16 bytes @ 0xE0001FF0) -- CPU_ReadMem(16 bytes @ 0xE0001FE0)ROMTbl 0 [1]: FFF02000, CID: B105E00D, PID: 003BB002 DWT -- CPU_ReadMem(16 bytes @ 0xE0002FF0) -- CPU_ReadMem(16 bytes @ 0xE0002FE0)ROMTbl 0 [2]: FFF03000, CID: B105E00D, PID: 002BB003 FPB -- CPU_ReadMem(16 bytes @ 0xE0000FF0) -- CPU_ReadMem(16 bytes @ 0xE0000FE0)
ROMTbl 0 [3]: FFF01000, CID: B105E00D, PID: 003BB001 ITM -- CPU_ReadMem(16 bytes @ 0xE00FF010) -- CPU_ReadMem(16 bytes @ 0xE0040FF0) -- CPU_ReadMem(16 bytes @ 0xE0040FE0)ROMTbl 0 [4]: FFF41000, CID: B105900D, PID: 000BB9A1 TPIU -- CPU_ReadMem(16 bytes @ 0xE0041FF0) -- CPU_ReadMem(16 bytes @ 0xE0041FE0)ROMTbl 0 [5]: FFF42000, CID: B105900D, PID: 000BB925 ETM >0x0D TIF> >0x21 TIF>  returns 0x2BA01477 (0090ms, 0644ms total)
T6650 000:761 JLINK_GetDLLVersion()  returns 51008 (0000ms, 0644ms total)
T6650 000:761 JLINK_CORE_GetFound()  returns 0xE0000FF (0000ms, 0644ms total)
T6650 000:761 JLINK_GetDebugInfo(0x100) -- Value=0xE00FF000  returns 0x00 (0000ms, 0644ms total)
T6650 000:766 JLINK_GetDebugInfo(0x100) -- Value=0xE00FF000  returns 0x00 (0000ms, 0644ms total)
T6650 000:766 JLINK_GetDebugInfo(0x101) -- Value=0xE0041000  returns 0x00 (0000ms, 0644ms total)
T6650 000:766 JLINK_GetDebugInfo(0x102) -- Value=0x00000000  returns 0x00 (0000ms, 0644ms total)
T6650 000:766 JLINK_GetDebugInfo(0x103) -- Value=0xE0040000  returns 0x00 (0000ms, 0644ms total)
T6650 000:766 JLINK_GetDebugInfo(0x104) -- Value=0xE0000000  returns 0x00 (0000ms, 0644ms total)
T6650 000:766 JLINK_GetDebugInfo(0x105) -- Value=0xE0001000  returns 0x00 (0000ms, 0644ms total)
T6650 000:766 JLINK_GetDebugInfo(0x106) -- Value=0xE0002000  returns 0x00 (0000ms, 0644ms total)
T6650 000:766 JLINK_GetDebugInfo(0x107) -- Value=0xE000E000  returns 0x00 (0000ms, 0644ms total)
T6650 000:766 JLINK_GetDebugInfo(0x10C) -- Value=0xE000EDF0  returns 0x00 (0000ms, 0644ms total)
T6650 000:766 JLINK_ReadMemU32(0xE000EF40, 0x0001 Items, ...) -- CPU is running -- CPU_ReadMem(4 bytes @ 0xE000EF40) - Data: 21 00 11 10  returns 0x01 (0000ms, 0644ms total)
T6650 000:766 JLINK_ReadMemU32(0xE000EF44, 0x0001 Items, ...) -- CPU is running -- CPU_ReadMem(4 bytes @ 0xE000EF44) - Data: 11 00 00 11  returns 0x01 (0001ms, 0645ms total)
T6650 000:767 JLINK_ReadMemU32(0xE000ED00, 0x0001 Items, ...) -- CPU is running -- CPU_ReadMem(4 bytes @ 0xE000ED00) - Data: 41 C2 0F 41  returns 0x01 (0000ms, 0645ms total)
T6650 000:767 JLINK_SetResetType(JLINKARM_RESET_TYPE_NORMAL)  returns JLINKARM_RESET_TYPE_NORMAL (0000ms, 0645ms total)
T6650 000:767 JLINK_Reset() -- CPU is running -- CPU_WriteMem(4 bytes @ 0xE000EDF0) -- CPU is running -- CPU_WriteMem(4 bytes @ 0xE000EDFC) >0x35 TIF> -- CPU is running -- CPU_WriteMem(4 bytes @ 0xE000ED0C) -- CPU is running -- CPU_ReadMem(4 bytes @ 0xE000EDF0) -- CPU is running -- CPU_ReadMem(4 bytes @ 0xE000EDF0) -- CPU is running -- CPU_WriteMem(4 bytes @ 0xE000EDF0) -- CPU is running -- CPU_WriteMem(4 bytes @ 0xE000EDFC) -- CPU is running -- CPU_ReadMem(4 bytes @ 0xE000EDF0)
 -- CPU_WriteMem(4 bytes @ 0xE0002000) -- CPU_ReadMem(4 bytes @ 0xE000EDFC) -- CPU_ReadMem(4 bytes @ 0xE0001000) (0017ms, 0662ms total)
T6650 000:784 JLINK_Halt()  returns 0x00 (0000ms, 0662ms total)
T6650 000:784 JLINK_IsHalted()  returns TRUE (0000ms, 0662ms total)
T6650 000:784 JLINK_ReadMemU32(0xE000EDF0, 0x0001 Items, ...) -- CPU_ReadMem(4 bytes @ 0xE000EDF0) - Data: 03 00 03 00  returns 0x01 (0001ms, 0663ms total)
T6650 000:785 JLINK_WriteU32(0xE000EDF0, 0xA05F0003) -- CPU_WriteMem(4 bytes @ 0xE000EDF0)  returns 0x00 (0000ms, 0663ms total)
T6650 000:785 JLINK_WriteU32(0xE000EDFC, 0x01000000) -- CPU_WriteMem(4 bytes @ 0xE000EDFC)  returns 0x00 (0001ms, 0664ms total)
T6650 000:808 JLINK_GetHWStatus(...)  returns 0x00 (0000ms, 0664ms total)
T6650 000:822 JLINK_GetNumBPUnits(Type = 0xFFFFFF00)  returns 0x06 (0000ms, 0664ms total)
T6650 000:822 JLINK_GetNumBPUnits(Type = 0xF0)  returns 0x2000 (0000ms, 0664ms total)
T6650 000:822 JLINK_GetNumWPUnits()  returns 0x04 (0000ms, 0664ms total)
T6650 000:837 JLINK_GetSpeed()  returns 0xFA0 (0000ms, 0664ms total)
T6650 000:845 JLINK_ReadMemU32(0xE000E004, 0x0001 Items, ...) -- CPU_ReadMem(4 bytes @ 0xE000E004) - Data: 02 00 00 00  returns 0x01 (0001ms, 0665ms total)
T6650 000:846 JLINK_ReadMemU32(0xE000E004, 0x0001 Items, ...) -- CPU_ReadMem(4 bytes @ 0xE000E004) - Data: 02 00 00 00  returns 0x01 (0000ms, 0665ms total)
T6650 000:846 JLINK_WriteMem(0xE0001000, 0x001C Bytes, ...) - Data: 01 00 00 00 00 00 00 00 00 00 00 00 00 00 00 00 ... -- CPU_WriteMem(28 bytes @ 0xE0001000)  returns 0x1C (0001ms, 0666ms total)
T6650 000:847 JLINK_ReadMem (0xE0001000, 0x001C Bytes, ...) -- CPU_ReadMem(28 bytes @ 0xE0001000) - Data: 01 00 00 40 00 00 00 00 00 00 00 00 00 00 00 00 ...  returns 0x00 (0001ms, 0667ms total)
T6650 000:848 JLINK_Halt()  returns 0x00 (0000ms, 0667ms total)
T6650 000:848 JLINK_IsHalted()  returns TRUE (0000ms, 0667ms total)
T6650 000:851 JLINK_WriteMem(0x20000000, 0x0180 Bytes, ...) - Data: 00 BE 0A E0 0D 78 2D 06 68 40 08 24 40 00 00 D3 ... -- CPU_WriteMem(384 bytes @ 0x20000000)  returns 0x180 (0006ms, 0673ms total)
T6650 000:857 JLINK_WriteReg(R0, 0x08000000)  returns 0x00 (0000ms, 0673ms total)
T6650 000:857 JLINK_WriteReg(R1, 0x007A1200)  returns 0x00 (0000ms, 0673ms total)
T6650 000:857 JLINK_WriteReg(R2, 0x00000001)  returns 0x00 (0000ms, 0673ms total)
T6650 000:857 JLINK_WriteReg(R3, 0x00000000)  returns 0x00 (0000ms, 0673ms total)
T6650 000:857 JLINK_WriteReg(R4, 0x00000000)  returns 0x00 (0000ms, 0673ms total)
T6650 000:857 JLINK_WriteReg(R5, 0x00000000)  returns 0x00 (0000ms, 0673ms total)
T6650 000:857 JLINK_WriteReg(R6, 0x00000000)  returns 0x00 (0000ms, 0673ms total)
T6650 000:857 JLINK_WriteReg(R7, 0x00000000)  returns 0x00 (0000ms, 0673ms total)
T6650 000:857 JLINK_WriteReg(R8, 0x00000000)  returns 0x00 (0000ms, 0673ms total)
T6650 000:857 JLINK_WriteReg(R9, 0x2000017C)  returns 0x00 (0000ms, 0673ms total)
T6650 000:857 JLINK_WriteReg(R10, 0x00000000)  returns 0x00 (0000ms, 0673ms total)
T6650 000:857 JLINK_WriteReg(R11, 0x00000000)  returns 0x00 (0000ms, 0673ms total)
T6650 000:857 JLINK_WriteReg(R12, 0x00000000)  returns 0x00 (0000ms, 0673ms total)
T6650 000:857 JLINK_WriteReg(R13 (SP), 0x20001000)  returns 0x00 (0000ms, 0673ms total)
T6650 000:857 JLINK_WriteReg(R14, 0x20000001)  returns 0x00 (0000ms, 0673ms total)
T6650 000:857 JLINK_WriteReg(R15 (PC), 0x20000054)  returns 0x00 (0000ms, 0673ms total)
T6650 000:857 JLINK_WriteReg(XPSR, 0x01000000)  returns 0x00 (0000ms, 0673ms total)
T6650 000:857 JLINK_WriteReg(MSP, 0x20001000)  returns 0x00 (0000ms, 0673ms total)
T6650 000:857 JLINK_WriteReg(PSP, 0x20001000)  returns 0x00 (0000ms, 0673ms total)
T6650 000:857 JLINK_WriteReg(CFBP, 0x00000000)  returns 0x00 (0000ms, 0673ms total)
T6650 000:857 JLINK_SetBPEx(Addr = 0x20000000, Type = 0xFFFFFFF2) -- CPU_ReadMem(2 bytes @ 0x20000000)  returns 0x00000001 (0001ms, 0674ms total)
T6650 000:858 JLINK_Go() -- CPU_WriteMem(2 bytes @ 0x20000000) -- CPU_ReadMem(4 bytes @ 0xE0001000) -- CPU_WriteMem(4 bytes @ 0xE0002008) -- CPU_WriteMem(4 bytes @ 0xE000200C) -- CPU_WriteMem(4 bytes @ 0xE0002010) -- CPU_WriteMem(4 bytes @ 0xE0002014) -- CPU_WriteMem(4 bytes @ 0xE0002018) -- CPU_WriteMem(4 bytes @ 0xE000201C) -- CPU_WriteMem(4 bytes @ 0xE0001004) (0004ms, 0678ms total)
T6650 000:862 JLINK_IsHalted() -- CPU_ReadMem(2 bytes @ 0x20000000)  returns TRUE (0003ms, 0681ms total)
T6650 000:865 JLINK_ReadReg(R15 (PC))  returns 0x20000000 (0000ms, 0678ms total)
T6650 000:865 JLINK_ClrBPEx(BPHandle = 0x00000001)  returns 0x00 (0000ms, 0678ms total)
T6650 000:865 JLINK_ReadReg(R0)  returns 0x00000000 (0000ms, 0678ms total)
T6650 000:866 JLINK_WriteReg(R0, 0x08000000)  returns 0x00 (0000ms, 0678ms total)
T6650 000:866 JLINK_WriteReg(R1, 0x00004000)  returns 0x00 (0000ms, 0678ms total)
T6650 000:866 JLINK_WriteReg(R2, 0x000000FF)  returns 0x00 (0000ms, 0678ms total)
T6650 000:866 JLINK_WriteReg(R3, 0x00000000)  returns 0x00 (0000ms, 0678ms total)
T6650 000:866 JLINK_WriteReg(R4, 0x00000000)  returns 0x00 (0000ms, 0678ms total)
T6650 000:866 JLINK_WriteReg(R5, 0x00000000)  returns 0x00 (0000ms, 0678ms total)
T6650 000:866 JLINK_WriteReg(R6, 0x00000000)  returns 0x00 (0000ms, 0678ms total)
T6650 000:866 JLINK_WriteReg(R7, 0x00000000)  returns 0x00 (0000ms, 0678ms total)
T6650 000:866 JLINK_WriteReg(R8, 0x00000000)  returns 0x00 (0000ms, 0678ms total)
T6650 000:866 JLINK_WriteReg(R9, 0x2000017C)  returns 0x00 (0000ms, 0678ms total)
T6650 000:866 JLINK_WriteReg(R10, 0x00000000)  returns 0x00 (0000ms, 0678ms total)
T6650 000:866 JLINK_WriteReg(R11, 0x00000000)  returns 0x00 (0000ms, 0678ms total)
T6650 000:866 JLINK_WriteReg(R12, 0x00000000)  returns 0x00 (0000ms, 0678ms total)
T6650 000:866 JLINK_WriteReg(R13 (SP), 0x20001000)  returns 0x00 (0000ms, 0678ms total)
T6650 000:866 JLINK_WriteReg(R14, 0x20000001)  returns 0x00 (0000ms, 0678ms total)
T6650 000:866 JLINK_WriteReg(R15 (PC), 0x20000020)  returns 0x00 (0000ms, 0678ms total)
T6650 000:866 JLINK_WriteReg(XPSR, 0x01000000)  returns 0x00 (0000ms, 0678ms total)
T6650 000:866 JLINK_WriteReg(MSP, 0x20001000)  returns 0x00 (0000ms, 0678ms total)
T6650 000:866 JLINK_WriteReg(PSP, 0x20001000)  returns 0x00 (0000ms, 0678ms total)
T6650 000:866 JLINK_WriteReg(CFBP, 0x00000000)  returns 0x00 (0000ms, 0678ms total)
T6650 000:866 JLINK_SetBPEx(Addr = 0x20000000, Type = 0xFFFFFFF2)  returns 0x00000002 (0000ms, 0678ms total)
T6650 000:866 JLINK_Go() -- CPU_ReadMem(4 bytes @ 0xE0001000) (0002ms, 0680ms total)
T6650 000:868 JLINK_IsHalted() -- CPU_ReadMem(2 bytes @ 0x20000000)  returns TRUE (0004ms, 0684ms total)
T6650 000:872 JLINK_ReadReg(R15 (PC))  returns 0x20000000 (0000ms, 0680ms total)
T6650 000:872 JLINK_ClrBPEx(BPHandle = 0x00000002)  returns 0x00 (0000ms, 0680ms total)
T6650 000:872 JLINK_ReadReg(R0)  returns 0x00000001 (0000ms, 0680ms total)
T6650 000:872 JLINK_WriteReg(R0, 0x08000000)  returns 0x00 (0000ms, 0680ms total)
T6650 000:872 JLINK_WriteReg(R1, 0x00004000)  returns 0x00 (0000ms, 0680ms total)
T6650 000:872 JLINK_WriteReg(R2, 0x000000FF)  returns 0x00 (0000ms, 0680ms total)
T6650 000:872 JLINK_WriteReg(R3, 0x00000000)  returns 0x00 (0000ms, 0680ms total)
T6650 000:872 JLINK_WriteReg(R4, 0x00000000)  returns 0x00 (0000ms, 0680ms total)
T6650 000:872 JLINK_WriteReg(R5, 0x00000000)  returns 0x00 (0000ms, 0680ms total)
T6650 000:872 JLINK_WriteReg(R6, 0x00000000)  returns 0x00 (0000ms, 0680ms total)
T6650 000:872 JLINK_WriteReg(R7, 0x00000000)  returns 0x00 (0000ms, 0680ms total)
T6650 000:872 JLINK_WriteReg(R8, 0x00000000)  returns 0x00 (0000ms, 0680ms total)
T6650 000:872 JLINK_WriteReg(R9, 0x2000017C)  returns 0x00 (0000ms, 0680ms total)
T6650 000:872 JLINK_WriteReg(R10, 0x00000000)  returns 0x00 (0000ms, 0680ms total)
T6650 000:872 JLINK_WriteReg(R11, 0x00000000)  returns 0x00 (0000ms, 0680ms total)
T6650 000:872 JLINK_WriteReg(R12, 0x00000000)  returns 0x00 (0000ms, 0680ms total)
T6650 000:872 JLINK_WriteReg(R13 (SP), 0x20001000)  returns 0x00 (0000ms, 0680ms total)
T6650 000:872 JLINK_WriteReg(R14, 0x20000001)  returns 0x00 (0000ms, 0680ms total)
T6650 000:872 JLINK_WriteReg(R15 (PC), 0x200000BC)  returns 0x00 (0000ms, 0680ms total)
T6650 000:872 JLINK_WriteReg(XPSR, 0x01000000)  returns 0x00 (0000ms, 0680ms total)
T6650 000:872 JLINK_WriteReg(MSP, 0x20001000)  returns 0x00 (0000ms, 0680ms total)
T6650 000:872 JLINK_WriteReg(PSP, 0x20001000)  returns 0x00 (0000ms, 0680ms total)
T6650 000:872 JLINK_WriteReg(CFBP, 0x00000000)  returns 0x00 (0000ms, 0680ms total)
T6650 000:872 JLINK_SetBPEx(Addr = 0x20000000, Type = 0xFFFFFFF2)  returns 0x00000003 (0000ms, 0680ms total)
T6650 000:872 JLINK_Go() -- CPU_ReadMem(4 bytes @ 0xE0001000) (0002ms, 0682ms total)
T6650 000:874 JLINK_IsHalted()  returns FALSE (0000ms, 0682ms total)
T6650 000:913 JLINK_IsHalted()  returns FALSE (0000ms, 0682ms total)
T6650 000:915 JLINK_IsHalted()  returns FALSE (0000ms, 0682ms total)
T6650 000:917 JLINK_IsHalted()  returns FALSE (0000ms, 0682ms total)
T6650 000:919 JLINK_IsHalted()  returns FALSE (0000ms, 0682ms total)
T6650 000:921 JLINK_IsHalted()  returns FALSE (0000ms, 0682ms total)
T6650 000:923 JLINK_IsHalted()  returns FALSE (0000ms, 0682ms total)
T6650 000:925 JLINK_IsHalted()  returns FALSE (0000ms, 0682ms total)
T6650 000:927 JLINK_IsHalted()  returns FALSE (0000ms, 0682ms total)
T6650 000:929 JLINK_IsHalted()  returns FALSE (0000ms, 0682ms total)
T6650 000:931 JLINK_IsHalted()  returns FALSE (0000ms, 0682ms total)
T6650 000:933 JLINK_IsHalted()  returns FALSE (0000ms, 0682ms total)
T6650 000:935 JLINK_IsHalted()  returns FALSE (0000ms, 0682ms total)
T6650 000:937 JLINK_IsHalted()  returns FALSE (0000ms, 0682ms total)
T6650 000:939 JLINK_IsHalted()  returns FALSE (0000ms, 0682ms total)
T6650 000:941 JLINK_IsHalted()  returns FALSE (0000ms, 0682ms total)
T6650 000:943 JLINK_IsHalted()  returns FALSE (0000ms, 0682ms total)
T6650 000:945 JLINK_IsHalted()  returns FALSE (0000ms, 0682ms total)
T6650 000:947 JLINK_IsHalted()  returns FALSE (0000ms, 0682ms total)
T6650 000:949 JLINK_IsHalted()  returns FALSE (0000ms, 0682ms total)
T6650 000:951 JLINK_IsHalted()  returns FALSE (0000ms, 0682ms total)
T6650 000:954 JLINK_IsHalted()  returns FALSE (0000ms, 0682ms total)
T6650 000:955 JLINK_IsHalted()  returns FALSE (0000ms, 0682ms total)
T6650 000:957 JLINK_IsHalted()  returns FALSE (0000ms, 0682ms total)
T6650 000:959 JLINK_IsHalted()  returns FALSE (0000ms, 0682ms total)
T6650 000:961 JLINK_IsHalted()  returns FALSE (0000ms, 0682ms total)
T6650 000:963 JLINK_IsHalted()  returns FALSE (0000ms, 0682ms total)
T6650 000:965 JLINK_IsHalted()  returns FALSE (0000ms, 0682ms total)
T6650 000:968 JLINK_IsHalted()  returns FALSE (0000ms, 0682ms total)
T6650 000:969 JLINK_IsHalted()  returns FALSE (0000ms, 0682ms total)
T6650 000:971 JLINK_IsHalted()  returns FALSE (0000ms, 0682ms total)
T6650 000:973 JLINK_IsHalted()  returns FALSE (0000ms, 0682ms total)
T6650 000:975 JLINK_IsHalted()  returns FALSE (0000ms, 0682ms total)
T6650 000:979 JLINK_IsHalted()  returns FALSE (0000ms, 0682ms total)
T6650 000:981 JLINK_IsHalted()  returns FALSE (0000ms, 0682ms total)
T6650 000:983 JLINK_IsHalted()  returns FALSE (0000ms, 0682ms total)
T6650 000:985 JLINK_IsHalted()  returns FALSE (0000ms, 0682ms total)
T6650 000:987 JLINK_IsHalted()  returns FALSE (0000ms, 0682ms total)
T6650 000:989 JLINK_IsHalted()  returns FALSE (0000ms, 0682ms total)
T6650 000:991 JLINK_IsHalted()  returns FALSE (0000ms, 0682ms total)
T6650 000:994 JLINK_IsHalted()  returns FALSE (0000ms, 0682ms total)
T6650 000:996 JLINK_IsHalted()  returns FALSE (0000ms, 0682ms total)
T6650 000:998 JLINK_IsHalted()  returns FALSE (0000ms, 0682ms total)
T6650 001:000 JLINK_IsHalted()  returns FALSE (0000ms, 0682ms total)
T6650 001:002 JLINK_IsHalted()  returns FALSE (0000ms, 0682ms total)
T6650 001:004 JLINK_IsHalted()  returns FALSE (0000ms, 0682ms total)
T6650 001:006 JLINK_IsHalted()  returns FALSE (0000ms, 0682ms total)
T6650 001:008 JLINK_IsHalted()  returns FALSE (0000ms, 0682ms total)
T6650 001:010 JLINK_IsHalted()  returns FALSE (0000ms, 0682ms total)
T6650 001:012 JLINK_IsHalted()  returns FALSE (0000ms, 0682ms total)
T6650 001:014 JLINK_IsHalted()  returns FALSE (0000ms, 0682ms total)
T6650 001:016 JLINK_IsHalted()  returns FALSE (0000ms, 0682ms total)
T6650 001:018 JLINK_IsHalted()  returns FALSE (0000ms, 0682ms total)
T6650 001:020 JLINK_IsHalted()  returns FALSE (0000ms, 0682ms total)
T6650 001:022 JLINK_IsHalted()  returns FALSE (0000ms, 0682ms total)
T6650 001:024 JLINK_IsHalted()  returns FALSE (0000ms, 0682ms total)
T6650 001:026 JLINK_IsHalted()  returns FALSE (0000ms, 0682ms total)
T6650 001:028 JLINK_IsHalted()  returns FALSE (0000ms, 0682ms total)
T6650 001:030 JLINK_IsHalted()  returns FALSE (0000ms, 0682ms total)
T6650 001:032 JLINK_IsHalted()  returns FALSE (0000ms, 0682ms total)
T6650 001:034 JLINK_IsHalted()  returns FALSE (0000ms, 0682ms total)
T6650 001:036 JLINK_IsHalted()  returns FALSE (0000ms, 0682ms total)
T6650 001:038 JLINK_IsHalted()  returns FALSE (0000ms, 0682ms total)
T6650 001:040 JLINK_IsHalted()  returns FALSE (0000ms, 0682ms total)
T6650 001:042 JLINK_IsHalted()  returns FALSE (0000ms, 0682ms total)
T6650 001:044 JLINK_IsHalted()  returns FALSE (0000ms, 0682ms total)
T6650 001:046 JLINK_IsHalted()  returns FALSE (0000ms, 0682ms total)
T6650 001:048 JLINK_IsHalted()  returns FALSE (0000ms, 0682ms total)
T6650 001:050 JLINK_IsHalted()  returns FALSE (0000ms, 0682ms total)
T6650 001:052 JLINK_IsHalted()  returns FALSE (0000ms, 0682ms total)
T6650 001:054 JLINK_IsHalted()  returns FALSE (0000ms, 0682ms total)
T6650 001:056 JLINK_IsHalted()  returns FALSE (0000ms, 0682ms total)
T6650 001:058 JLINK_IsHalted()  returns FALSE (0000ms, 0682ms total)
T6650 001:060 JLINK_IsHalted()  returns FALSE (0000ms, 0682ms total)
T6650 001:062 JLINK_IsHalted()  returns FALSE (0000ms, 0682ms total)
T6650 001:064 JLINK_IsHalted()  returns FALSE (0000ms, 0682ms total)
T6650 001:066 JLINK_IsHalted()  returns FALSE (0000ms, 0682ms total)
T6650 001:068 JLINK_IsHalted()  returns FALSE (0000ms, 0682ms total)
T6650 001:070 JLINK_IsHalted()  returns FALSE (0000ms, 0682ms total)
T6650 001:072 JLINK_IsHalted()  returns FALSE (0000ms, 0682ms total)
T6650 001:074 JLINK_IsHalted()  returns FALSE (0000ms, 0682ms total)
T6650 001:076 JLINK_IsHalted()  returns FALSE (0000ms, 0682ms total)
T6650 001:078 JLINK_IsHalted()  returns FALSE (0000ms, 0682ms total)
T6650 001:080 JLINK_IsHalted()  returns FALSE (0000ms, 0682ms total)
T6650 001:082 JLINK_IsHalted()  returns FALSE (0000ms, 0682ms total)
T6650 001:084 JLINK_IsHalted()  returns FALSE (0000ms, 0682ms total)
T6650 001:088 JLINK_IsHalted()  returns FALSE (0000ms, 0682ms total)
T6650 001:090 JLINK_IsHalted()  returns FALSE (0000ms, 0682ms total)
T6650 001:092 JLINK_IsHalted()  returns FALSE (0000ms, 0682ms total)
T6650 001:094 JLINK_IsHalted()  returns FALSE (0000ms, 0682ms total)
T6650 001:096 JLINK_IsHalted()  returns FALSE (0000ms, 0682ms total)
T6650 001:098 JLINK_IsHalted()  returns FALSE (0000ms, 0682ms total)
T6650 001:103 JLINK_IsHalted()  returns FALSE (0000ms, 0682ms total)
T6650 001:105 JLINK_IsHalted()  returns FALSE (0000ms, 0682ms total)
T6650 001:107 JLINK_IsHalted()  returns FALSE (0000ms, 0682ms total)
T6650 001:109 JLINK_IsHalted()  returns FALSE (0000ms, 0682ms total)
T6650 001:111 JLINK_IsHalted()  returns FALSE (0000ms, 0682ms total)
T6650 001:113 JLINK_IsHalted()  returns FALSE (0000ms, 0682ms total)
T6650 001:115 JLINK_IsHalted()  returns FALSE (0000ms, 0682ms total)
T6650 001:117 JLINK_IsHalted()  returns FALSE (0000ms, 0682ms total)
T6650 001:119 JLINK_IsHalted()  returns FALSE (0000ms, 0682ms total)
T6650 001:121 JLINK_IsHalted()  returns FALSE (0000ms, 0682ms total)
T6650 001:123 JLINK_IsHalted()  returns FALSE (0000ms, 0682ms total)
T6650 001:125 JLINK_IsHalted()  returns FALSE (0000ms, 0682ms total)
T6650 001:127 JLINK_IsHalted()  returns FALSE (0000ms, 0682ms total)
T6650 001:129 JLINK_IsHalted()  returns FALSE (0000ms, 0682ms total)
T6650 001:131 JLINK_IsHalted()  returns FALSE (0000ms, 0682ms total)
T6650 001:133 JLINK_IsHalted()  returns FALSE (0000ms, 0682ms total)
T6650 001:135 JLINK_IsHalted()  returns FALSE (0000ms, 0682ms total)
T6650 001:137 JLINK_IsHalted()  returns FALSE (0000ms, 0682ms total)
T6650 001:139 JLINK_IsHalted()  returns FALSE (0000ms, 0682ms total)
T6650 001:141 JLINK_IsHalted()  returns FALSE (0000ms, 0682ms total)
T6650 001:143 JLINK_IsHalted()  returns FALSE (0000ms, 0682ms total)
T6650 001:145 JLINK_IsHalted()  returns FALSE (0000ms, 0682ms total)
T6650 001:147 JLINK_IsHalted()  returns FALSE (0000ms, 0682ms total)
T6650 001:149 JLINK_IsHalted()  returns FALSE (0000ms, 0682ms total)
T6650 001:151 JLINK_IsHalted()  returns FALSE (0000ms, 0682ms total)
T6650 001:153 JLINK_IsHalted()  returns FALSE (0000ms, 0682ms total)
T6650 001:155 JLINK_IsHalted()  returns FALSE (0000ms, 0682ms total)
T6650 001:157 JLINK_IsHalted()  returns FALSE (0000ms, 0682ms total)
T6650 001:159 JLINK_IsHalted()  returns FALSE (0000ms, 0682ms total)
T6650 001:161 JLINK_IsHalted()  returns FALSE (0000ms, 0682ms total)
T6650 001:163 JLINK_IsHalted()  returns FALSE (0000ms, 0682ms total)
T6650 001:165 JLINK_IsHalted()  returns FALSE (0000ms, 0682ms total)
T6650 001:167 JLINK_IsHalted()  returns FALSE (0000ms, 0682ms total)
T6650 001:169 JLINK_IsHalted()  returns FALSE (0000ms, 0682ms total)
T6650 001:171 JLINK_IsHalted()  returns FALSE (0000ms, 0682ms total)
T6650 001:173 JLINK_IsHalted()  returns FALSE (0000ms, 0682ms total)
T6650 001:175 JLINK_IsHalted()  returns FALSE (0000ms, 0682ms total)
T6650 001:177 JLINK_IsHalted()  returns FALSE (0000ms, 0682ms total)
T6650 001:180 JLINK_IsHalted()  returns FALSE (0000ms, 0682ms total)
T6650 001:182 JLINK_IsHalted()  returns FALSE (0000ms, 0682ms total)
T6650 001:184 JLINK_IsHalted()  returns FALSE (0000ms, 0682ms total)
T6650 001:186 JLINK_IsHalted()  returns FALSE (0000ms, 0682ms total)
T6650 001:188 JLINK_IsHalted()  returns FALSE (0000ms, 0682ms total)
T6650 001:190 JLINK_IsHalted()  returns FALSE (0000ms, 0682ms total)
T6650 001:192 JLINK_IsHalted()  returns FALSE (0000ms, 0682ms total)
T6650 001:194 JLINK_IsHalted()  returns FALSE (0000ms, 0682ms total)
T6650 001:196 JLINK_IsHalted()  returns FALSE (0000ms, 0682ms total)
T6650 001:199 JLINK_IsHalted()  returns FALSE (0000ms, 0682ms total)
T6650 001:201 JLINK_IsHalted()  returns FALSE (0000ms, 0682ms total)
T6650 001:203 JLINK_IsHalted()  returns FALSE (0000ms, 0682ms total)
T6650 001:205 JLINK_IsHalted()  returns FALSE (0000ms, 0682ms total)
T6650 001:207 JLINK_IsHalted()  returns FALSE (0000ms, 0682ms total)
T6650 001:209 JLINK_IsHalted()  returns FALSE (0000ms, 0682ms total)
T6650 001:211 JLINK_IsHalted()  returns FALSE (0000ms, 0682ms total)
T6650 001:213 JLINK_IsHalted()  returns FALSE (0000ms, 0682ms total)
T6650 001:215 JLINK_IsHalted()  returns FALSE (0000ms, 0682ms total)
T6650 001:217 JLINK_IsHalted()  returns FALSE (0000ms, 0682ms total)
T6650 001:219 JLINK_IsHalted()  returns FALSE (0000ms, 0682ms total)
T6650 001:221 JLINK_IsHalted()  returns FALSE (0000ms, 0682ms total)
T6650 001:223 JLINK_IsHalted()  returns FALSE (0000ms, 0682ms total)
T6650 001:225 JLINK_IsHalted()  returns FALSE (0000ms, 0682ms total)
T6650 001:227 JLINK_IsHalted()  returns FALSE (0000ms, 0682ms total)
T6650 001:229 JLINK_IsHalted()  returns FALSE (0000ms, 0682ms total)
T6650 001:231 JLINK_IsHalted()  returns FALSE (0000ms, 0682ms total)
T6650 001:233 JLINK_IsHalted()  returns FALSE (0000ms, 0682ms total)
T6650 001:235 JLINK_IsHalted()  returns FALSE (0000ms, 0682ms total)
T6650 001:237 JLINK_IsHalted() -- CPU_ReadMem(2 bytes @ 0x20000000)  returns TRUE (0003ms, 0685ms total)
T6650 001:240 JLINK_ReadReg(R15 (PC))  returns 0x20000000 (0000ms, 0682ms total)
T6650 001:240 JLINK_ClrBPEx(BPHandle = 0x00000003)  returns 0x00 (0000ms, 0682ms total)
T6650 001:240 JLINK_ReadReg(R0)  returns 0x00000000 (0000ms, 0682ms total)
T6650 001:241 JLINK_WriteReg(R0, 0x00000001)  returns 0x00 (0000ms, 0682ms total)
T6650 001:241 JLINK_WriteReg(R1, 0x00004000)  returns 0x00 (0000ms, 0682ms total)
T6650 001:241 JLINK_WriteReg(R2, 0x000000FF)  returns 0x00 (0000ms, 0682ms total)
T6650 001:241 JLINK_WriteReg(R3, 0x00000000)  returns 0x00 (0000ms, 0682ms total)
T6650 001:241 JLINK_WriteReg(R4, 0x00000000)  returns 0x00 (0000ms, 0682ms total)
T6650 001:241 JLINK_WriteReg(R5, 0x00000000)  returns 0x00 (0000ms, 0682ms total)
T6650 001:241 JLINK_WriteReg(R6, 0x00000000)  returns 0x00 (0000ms, 0682ms total)
T6650 001:241 JLINK_WriteReg(R7, 0x00000000)  returns 0x00 (0000ms, 0682ms total)
T6650 001:241 JLINK_WriteReg(R8, 0x00000000)  returns 0x00 (0000ms, 0682ms total)
T6650 001:241 JLINK_WriteReg(R9, 0x2000017C)  returns 0x00 (0000ms, 0682ms total)
T6650 001:241 JLINK_WriteReg(R10, 0x00000000)  returns 0x00 (0000ms, 0682ms total)
T6650 001:241 JLINK_WriteReg(R11, 0x00000000)  returns 0x00 (0000ms, 0682ms total)
T6650 001:241 JLINK_WriteReg(R12, 0x00000000)  returns 0x00 (0000ms, 0682ms total)
T6650 001:241 JLINK_WriteReg(R13 (SP), 0x20001000)  returns 0x00 (0000ms, 0682ms total)
T6650 001:241 JLINK_WriteReg(R14, 0x20000001)  returns 0x00 (0000ms, 0682ms total)
T6650 001:241 JLINK_WriteReg(R15 (PC), 0x20000082)  returns 0x00 (0000ms, 0682ms total)
T6650 001:241 JLINK_WriteReg(XPSR, 0x01000000)  returns 0x00 (0000ms, 0682ms total)
T6650 001:241 JLINK_WriteReg(MSP, 0x20001000)  returns 0x00 (0000ms, 0682ms total)
T6650 001:241 JLINK_WriteReg(PSP, 0x20001000)  returns 0x00 (0000ms, 0682ms total)
T6650 001:241 JLINK_WriteReg(CFBP, 0x00000000)  returns 0x00 (0000ms, 0682ms total)
T6650 001:241 JLINK_SetBPEx(Addr = 0x20000000, Type = 0xFFFFFFF2)  returns 0x00000004 (0000ms, 0682ms total)
T6650 001:241 JLINK_Go() -- CPU_ReadMem(4 bytes @ 0xE0001000) (0002ms, 0684ms total)
T6650 001:243 JLINK_IsHalted() -- CPU_ReadMem(2 bytes @ 0x20000000)  returns TRUE (0004ms, 0688ms total)
T6650 001:247 JLINK_ReadReg(R15 (PC))  returns 0x20000000 (0000ms, 0684ms total)
T6650 001:247 JLINK_ClrBPEx(BPHandle = 0x00000004)  returns 0x00 (0000ms, 0684ms total)
T6650 001:247 JLINK_ReadReg(R0)  returns 0x00000000 (0000ms, 0684ms total)
T6650 001:306 JLINK_WriteMem(0x20000000, 0x0180 Bytes, ...) - Data: 00 BE 0A E0 0D 78 2D 06 68 40 08 24 40 00 00 D3 ... -- CPU_WriteMem(384 bytes @ 0x20000000)  returns 0x180 (0005ms, 0689ms total)
T6650 001:311 JLINK_WriteReg(R0, 0x08000000)  returns 0x00 (0000ms, 0689ms total)
T6650 001:311 JLINK_WriteReg(R1, 0x007A1200)  returns 0x00 (0000ms, 0689ms total)
T6650 001:311 JLINK_WriteReg(R2, 0x00000002)  returns 0x00 (0000ms, 0689ms total)
T6650 001:311 JLINK_WriteReg(R3, 0x00000000)  returns 0x00 (0000ms, 0689ms total)
T6650 001:311 JLINK_WriteReg(R4, 0x00000000)  returns 0x00 (0000ms, 0689ms total)
T6650 001:311 JLINK_WriteReg(R5, 0x00000000)  returns 0x00 (0000ms, 0689ms total)
T6650 001:311 JLINK_WriteReg(R6, 0x00000000)  returns 0x00 (0001ms, 0690ms total)
T6650 001:312 JLINK_WriteReg(R7, 0x00000000)  returns 0x00 (0000ms, 0690ms total)
T6650 001:312 JLINK_WriteReg(R8, 0x00000000)  returns 0x00 (0000ms, 0690ms total)
T6650 001:312 JLINK_WriteReg(R9, 0x2000017C)  returns 0x00 (0000ms, 0690ms total)
T6650 001:312 JLINK_WriteReg(R10, 0x00000000)  returns 0x00 (0000ms, 0690ms total)
T6650 001:312 JLINK_WriteReg(R11, 0x00000000)  returns 0x00 (0000ms, 0690ms total)
T6650 001:312 JLINK_WriteReg(R12, 0x00000000)  returns 0x00 (0000ms, 0690ms total)
T6650 001:312 JLINK_WriteReg(R13 (SP), 0x20001000)  returns 0x00 (0000ms, 0690ms total)
T6650 001:312 JLINK_WriteReg(R14, 0x20000001)  returns 0x00 (0000ms, 0690ms total)
T6650 001:312 JLINK_WriteReg(R15 (PC), 0x20000054)  returns 0x00 (0000ms, 0690ms total)
T6650 001:312 JLINK_WriteReg(XPSR, 0x01000000)  returns 0x00 (0000ms, 0690ms total)
T6650 001:312 JLINK_WriteReg(MSP, 0x20001000)  returns 0x00 (0000ms, 0690ms total)
T6650 001:312 JLINK_WriteReg(PSP, 0x20001000)  returns 0x00 (0000ms, 0690ms total)
T6650 001:312 JLINK_WriteReg(CFBP, 0x00000000)  returns 0x00 (0000ms, 0690ms total)
T6650 001:312 JLINK_SetBPEx(Addr = 0x20000000, Type = 0xFFFFFFF2) -- CPU_ReadMem(2 bytes @ 0x20000000)  returns 0x00000005 (0000ms, 0690ms total)
T6650 001:312 JLINK_Go() -- CPU_WriteMem(2 bytes @ 0x20000000) -- CPU_ReadMem(4 bytes @ 0xE0001000) (0002ms, 0692ms total)
T6650 001:314 JLINK_IsHalted() -- CPU_ReadMem(2 bytes @ 0x20000000)  returns TRUE (0004ms, 0696ms total)
T6650 001:318 JLINK_ReadReg(R15 (PC))  returns 0x20000000 (0000ms, 0692ms total)
T6650 001:318 JLINK_ClrBPEx(BPHandle = 0x00000005)  returns 0x00 (0000ms, 0692ms total)
T6650 001:318 JLINK_ReadReg(R0)  returns 0x00000000 (0000ms, 0692ms total)
T6650 001:318 JLINK_WriteMem(0x20000180, 0x0400 Bytes, ...) - Data: E8 08 00 20 29 02 00 08 47 1F 00 08 59 1D 00 08 ... -- CPU_WriteMem(1024 bytes @ 0x20000180)  returns 0x400 (0012ms, 0704ms total)
T6650 001:331 JLINK_WriteReg(R0, 0x08000000)  returns 0x00 (0000ms, 0704ms total)
T6650 001:331 JLINK_WriteReg(R1, 0x00000400)  returns 0x00 (0000ms, 0704ms total)
T6650 001:331 JLINK_WriteReg(R2, 0x20000180)  returns 0x00 (0000ms, 0704ms total)
T6650 001:331 JLINK_WriteReg(R3, 0x00000000)  returns 0x00 (0000ms, 0704ms total)
T6650 001:331 JLINK_WriteReg(R4, 0x00000000)  returns 0x00 (0000ms, 0704ms total)
T6650 001:331 JLINK_WriteReg(R5, 0x00000000)  returns 0x00 (0000ms, 0704ms total)
T6650 001:331 JLINK_WriteReg(R6, 0x00000000)  returns 0x00 (0000ms, 0704ms total)
T6650 001:331 JLINK_WriteReg(R7, 0x00000000)  returns 0x00 (0000ms, 0704ms total)
T6650 001:331 JLINK_WriteReg(R8, 0x00000000)  returns 0x00 (0000ms, 0704ms total)
T6650 001:331 JLINK_WriteReg(R9, 0x2000017C)  returns 0x00 (0000ms, 0704ms total)
T6650 001:331 JLINK_WriteReg(R10, 0x00000000)  returns 0x00 (0000ms, 0704ms total)
T6650 001:331 JLINK_WriteReg(R11, 0x00000000)  returns 0x00 (0000ms, 0704ms total)
T6650 001:331 JLINK_WriteReg(R12, 0x00000000)  returns 0x00 (0000ms, 0704ms total)
T6650 001:331 JLINK_WriteReg(R13 (SP), 0x20001000)  returns 0x00 (0000ms, 0704ms total)
T6650 001:331 JLINK_WriteReg(R14, 0x20000001)  returns 0x00 (0000ms, 0704ms total)
T6650 001:331 JLINK_WriteReg(R15 (PC), 0x20000108)  returns 0x00 (0000ms, 0704ms total)
T6650 001:331 JLINK_WriteReg(XPSR, 0x01000000)  returns 0x00 (0000ms, 0704ms total)
T6650 001:331 JLINK_WriteReg(MSP, 0x20001000)  returns 0x00 (0000ms, 0704ms total)
T6650 001:331 JLINK_WriteReg(PSP, 0x20001000)  returns 0x00 (0000ms, 0704ms total)
T6650 001:331 JLINK_WriteReg(CFBP, 0x00000000)  returns 0x00 (0000ms, 0704ms total)
T6650 001:331 JLINK_SetBPEx(Addr = 0x20000000, Type = 0xFFFFFFF2)  returns 0x00000006 (0000ms, 0704ms total)
T6650 001:331 JLINK_Go() -- CPU_ReadMem(4 bytes @ 0xE0001000) (0002ms, 0706ms total)
T6650 001:333 JLINK_IsHalted()  returns FALSE (0000ms, 0706ms total)
T6650 001:337 JLINK_IsHalted()  returns FALSE (0000ms, 0706ms total)
T6650 001:339 JLINK_IsHalted() -- CPU_ReadMem(2 bytes @ 0x20000000)  returns TRUE (0003ms, 0709ms total)
T6650 001:342 JLINK_ReadReg(R15 (PC))  returns 0x20000000 (0000ms, 0706ms total)
T6650 001:342 JLINK_ClrBPEx(BPHandle = 0x00000006)  returns 0x00 (0000ms, 0706ms total)
T6650 001:342 JLINK_ReadReg(R0)  returns 0x00000000 (0000ms, 0706ms total)
T6650 001:342 JLINK_WriteMem(0x20000180, 0x0400 Bytes, ...) - Data: 10 40 FF F7 0A BF 00 00 00 48 70 47 88 02 00 20 ... -- CPU_WriteMem(1024 bytes @ 0x20000180)  returns 0x400 (0013ms, 0719ms total)
T6650 001:355 JLINK_WriteReg(R0, 0x08000400)  returns 0x00 (0000ms, 0719ms total)
T6650 001:355 JLINK_WriteReg(R1, 0x00000400)  returns 0x00 (0000ms, 0719ms total)
T6650 001:355 JLINK_WriteReg(R2, 0x20000180)  returns 0x00 (0000ms, 0719ms total)
T6650 001:355 JLINK_WriteReg(R3, 0x00000000)  returns 0x00 (0000ms, 0719ms total)
T6650 001:355 JLINK_WriteReg(R4, 0x00000000)  returns 0x00 (0000ms, 0719ms total)
T6650 001:355 JLINK_WriteReg(R5, 0x00000000)  returns 0x00 (0000ms, 0719ms total)
T6650 001:355 JLINK_WriteReg(R6, 0x00000000)  returns 0x00 (0000ms, 0719ms total)
T6650 001:355 JLINK_WriteReg(R7, 0x00000000)  returns 0x00 (0000ms, 0719ms total)
T6650 001:355 JLINK_WriteReg(R8, 0x00000000)  returns 0x00 (0000ms, 0719ms total)
T6650 001:355 JLINK_WriteReg(R9, 0x2000017C)  returns 0x00 (0000ms, 0719ms total)
T6650 001:355 JLINK_WriteReg(R10, 0x00000000)  returns 0x00 (0000ms, 0719ms total)
T6650 001:355 JLINK_WriteReg(R11, 0x00000000)  returns 0x00 (0000ms, 0719ms total)
T6650 001:355 JLINK_WriteReg(R12, 0x00000000)  returns 0x00 (0000ms, 0719ms total)
T6650 001:355 JLINK_WriteReg(R13 (SP), 0x20001000)  returns 0x00 (0000ms, 0719ms total)
T6650 001:355 JLINK_WriteReg(R14, 0x20000001)  returns 0x00 (0000ms, 0719ms total)
T6650 001:355 JLINK_WriteReg(R15 (PC), 0x20000108)  returns 0x00 (0000ms, 0719ms total)
T6650 001:355 JLINK_WriteReg(XPSR, 0x01000000)  returns 0x00 (0000ms, 0719ms total)
T6650 001:355 JLINK_WriteReg(MSP, 0x20001000)  returns 0x00 (0000ms, 0719ms total)
T6650 001:355 JLINK_WriteReg(PSP, 0x20001000)  returns 0x00 (0000ms, 0719ms total)
T6650 001:355 JLINK_WriteReg(CFBP, 0x00000000)  returns 0x00 (0000ms, 0719ms total)
T6650 001:355 JLINK_SetBPEx(Addr = 0x20000000, Type = 0xFFFFFFF2)  returns 0x00000007 (0000ms, 0719ms total)
T6650 001:355 JLINK_Go() -- CPU_ReadMem(4 bytes @ 0xE0001000) (0002ms, 0721ms total)
T6650 001:357 JLINK_IsHalted()  returns FALSE (0000ms, 0721ms total)
T6650 001:359 JLINK_IsHalted()  returns FALSE (0000ms, 0721ms total)
T6650 001:361 JLINK_IsHalted()  returns FALSE (0000ms, 0721ms total)
T6650 001:363 JLINK_IsHalted() -- CPU_ReadMem(2 bytes @ 0x20000000)  returns TRUE (0003ms, 0724ms total)
T6650 001:366 JLINK_ReadReg(R15 (PC))  returns 0x20000000 (0000ms, 0721ms total)
T6650 001:366 JLINK_ClrBPEx(BPHandle = 0x00000007)  returns 0x00 (0000ms, 0721ms total)
T6650 001:366 JLINK_ReadReg(R0)  returns 0x00000000 (0000ms, 0721ms total)
T6650 001:367 JLINK_WriteMem(0x20000180, 0x0400 Bytes, ...) - Data: 20 68 46 61 20 46 FF F7 23 FE 94 F8 5C 20 3F 21 ... -- CPU_WriteMem(1024 bytes @ 0x20000180)  returns 0x400 (0012ms, 0733ms total)
T6650 001:379 JLINK_WriteReg(R0, 0x08000800)  returns 0x00 (0000ms, 0733ms total)
T6650 001:379 JLINK_WriteReg(R1, 0x00000400)  returns 0x00 (0000ms, 0733ms total)
T6650 001:379 JLINK_WriteReg(R2, 0x20000180)  returns 0x00 (0000ms, 0733ms total)
T6650 001:379 JLINK_WriteReg(R3, 0x00000000)  returns 0x00 (0000ms, 0733ms total)
T6650 001:379 JLINK_WriteReg(R4, 0x00000000)  returns 0x00 (0000ms, 0733ms total)
T6650 001:379 JLINK_WriteReg(R5, 0x00000000)  returns 0x00 (0000ms, 0733ms total)
T6650 001:379 JLINK_WriteReg(R6, 0x00000000)  returns 0x00 (0000ms, 0733ms total)
T6650 001:379 JLINK_WriteReg(R7, 0x00000000)  returns 0x00 (0000ms, 0733ms total)
T6650 001:379 JLINK_WriteReg(R8, 0x00000000)  returns 0x00 (0000ms, 0733ms total)
T6650 001:379 JLINK_WriteReg(R9, 0x2000017C)  returns 0x00 (0000ms, 0733ms total)
T6650 001:379 JLINK_WriteReg(R10, 0x00000000)  returns 0x00 (0000ms, 0733ms total)
T6650 001:379 JLINK_WriteReg(R11, 0x00000000)  returns 0x00 (0000ms, 0733ms total)
T6650 001:379 JLINK_WriteReg(R12, 0x00000000)  returns 0x00 (0000ms, 0733ms total)
T6650 001:379 JLINK_WriteReg(R13 (SP), 0x20001000)  returns 0x00 (0000ms, 0733ms total)
T6650 001:379 JLINK_WriteReg(R14, 0x20000001)  returns 0x00 (0000ms, 0733ms total)
T6650 001:379 JLINK_WriteReg(R15 (PC), 0x20000108)  returns 0x00 (0000ms, 0733ms total)
T6650 001:379 JLINK_WriteReg(XPSR, 0x01000000)  returns 0x00 (0000ms, 0733ms total)
T6650 001:379 JLINK_WriteReg(MSP, 0x20001000)  returns 0x00 (0000ms, 0733ms total)
T6650 001:380 JLINK_WriteReg(PSP, 0x20001000)  returns 0x00 (0000ms, 0733ms total)
T6650 001:380 JLINK_WriteReg(CFBP, 0x00000000)  returns 0x00 (0000ms, 0733ms total)
T6650 001:380 JLINK_SetBPEx(Addr = 0x20000000, Type = 0xFFFFFFF2)  returns 0x00000008 (0000ms, 0733ms total)
T6650 001:380 JLINK_Go() -- CPU_ReadMem(4 bytes @ 0xE0001000) (0002ms, 0735ms total)
T6650 001:382 JLINK_IsHalted()  returns FALSE (0000ms, 0735ms total)
T6650 001:384 JLINK_IsHalted()  returns FALSE (0000ms, 0735ms total)
T6650 001:386 JLINK_IsHalted() -- CPU_ReadMem(2 bytes @ 0x20000000)  returns TRUE (0003ms, 0738ms total)
T6650 001:389 JLINK_ReadReg(R15 (PC))  returns 0x20000000 (0000ms, 0735ms total)
T6650 001:389 JLINK_ClrBPEx(BPHandle = 0x00000008)  returns 0x00 (0000ms, 0735ms total)
T6650 001:389 JLINK_ReadReg(R0)  returns 0x00000000 (0000ms, 0735ms total)
T6650 001:390 JLINK_WriteMem(0x20000180, 0x0400 Bytes, ...) - Data: B0 42 54 D1 28 68 3D 4C 81 07 12 D5 40 07 03 D5 ... -- CPU_WriteMem(1024 bytes @ 0x20000180)  returns 0x400 (0012ms, 0747ms total)
T6650 001:402 JLINK_WriteReg(R0, 0x08000C00)  returns 0x00 (0000ms, 0747ms total)
T6650 001:402 JLINK_WriteReg(R1, 0x00000400)  returns 0x00 (0000ms, 0747ms total)
T6650 001:402 JLINK_WriteReg(R2, 0x20000180)  returns 0x00 (0000ms, 0747ms total)
T6650 001:402 JLINK_WriteReg(R3, 0x00000000)  returns 0x00 (0000ms, 0747ms total)
T6650 001:402 JLINK_WriteReg(R4, 0x00000000)  returns 0x00 (0000ms, 0747ms total)
T6650 001:402 JLINK_WriteReg(R5, 0x00000000)  returns 0x00 (0000ms, 0747ms total)
T6650 001:402 JLINK_WriteReg(R6, 0x00000000)  returns 0x00 (0000ms, 0747ms total)
T6650 001:402 JLINK_WriteReg(R7, 0x00000000)  returns 0x00 (0000ms, 0747ms total)
T6650 001:402 JLINK_WriteReg(R8, 0x00000000)  returns 0x00 (0000ms, 0747ms total)
T6650 001:402 JLINK_WriteReg(R9, 0x2000017C)  returns 0x00 (0000ms, 0747ms total)
T6650 001:402 JLINK_WriteReg(R10, 0x00000000)  returns 0x00 (0000ms, 0747ms total)
T6650 001:402 JLINK_WriteReg(R11, 0x00000000)  returns 0x00 (0000ms, 0747ms total)
T6650 001:402 JLINK_WriteReg(R12, 0x00000000)  returns 0x00 (0000ms, 0747ms total)
T6650 001:402 JLINK_WriteReg(R13 (SP), 0x20001000)  returns 0x00 (0000ms, 0747ms total)
T6650 001:402 JLINK_WriteReg(R14, 0x20000001)  returns 0x00 (0000ms, 0747ms total)
T6650 001:402 JLINK_WriteReg(R15 (PC), 0x20000108)  returns 0x00 (0000ms, 0747ms total)
T6650 001:402 JLINK_WriteReg(XPSR, 0x01000000)  returns 0x00 (0000ms, 0747ms total)
T6650 001:402 JLINK_WriteReg(MSP, 0x20001000)  returns 0x00 (0000ms, 0747ms total)
T6650 001:402 JLINK_WriteReg(PSP, 0x20001000)  returns 0x00 (0000ms, 0747ms total)
T6650 001:402 JLINK_WriteReg(CFBP, 0x00000000)  returns 0x00 (0000ms, 0747ms total)
T6650 001:402 JLINK_SetBPEx(Addr = 0x20000000, Type = 0xFFFFFFF2)  returns 0x00000009 (0000ms, 0747ms total)
T6650 001:402 JLINK_Go() -- CPU_ReadMem(4 bytes @ 0xE0001000) (0002ms, 0749ms total)
T6650 001:404 JLINK_IsHalted()  returns FALSE (0001ms, 0750ms total)
T6650 001:407 JLINK_IsHalted()  returns FALSE (0000ms, 0749ms total)
T6650 001:409 JLINK_IsHalted() -- CPU_ReadMem(2 bytes @ 0x20000000)  returns TRUE (0003ms, 0752ms total)
T6650 001:412 JLINK_ReadReg(R15 (PC))  returns 0x20000000 (0000ms, 0749ms total)
T6650 001:412 JLINK_ClrBPEx(BPHandle = 0x00000009)  returns 0x00 (0000ms, 0749ms total)
T6650 001:412 JLINK_ReadReg(R0)  returns 0x00000000 (0000ms, 0749ms total)
T6650 001:413 JLINK_WriteMem(0x20000180, 0x0400 Bytes, ...) - Data: 21 F0 80 51 CB F8 00 10 A0 69 C8 B3 3D 49 09 1D ... -- CPU_WriteMem(1024 bytes @ 0x20000180)  returns 0x400 (0012ms, 0761ms total)
T6650 001:425 JLINK_WriteReg(R0, 0x08001000)  returns 0x00 (0000ms, 0761ms total)
T6650 001:425 JLINK_WriteReg(R1, 0x00000400)  returns 0x00 (0000ms, 0761ms total)
T6650 001:425 JLINK_WriteReg(R2, 0x20000180)  returns 0x00 (0000ms, 0761ms total)
T6650 001:425 JLINK_WriteReg(R3, 0x00000000)  returns 0x00 (0000ms, 0761ms total)
T6650 001:425 JLINK_WriteReg(R4, 0x00000000)  returns 0x00 (0000ms, 0761ms total)
T6650 001:425 JLINK_WriteReg(R5, 0x00000000)  returns 0x00 (0000ms, 0761ms total)
T6650 001:425 JLINK_WriteReg(R6, 0x00000000)  returns 0x00 (0000ms, 0761ms total)
T6650 001:425 JLINK_WriteReg(R7, 0x00000000)  returns 0x00 (0000ms, 0761ms total)
T6650 001:425 JLINK_WriteReg(R8, 0x00000000)  returns 0x00 (0000ms, 0761ms total)
T6650 001:425 JLINK_WriteReg(R9, 0x2000017C)  returns 0x00 (0000ms, 0761ms total)
T6650 001:425 JLINK_WriteReg(R10, 0x00000000)  returns 0x00 (0000ms, 0761ms total)
T6650 001:425 JLINK_WriteReg(R11, 0x00000000)  returns 0x00 (0000ms, 0761ms total)
T6650 001:425 JLINK_WriteReg(R12, 0x00000000)  returns 0x00 (0000ms, 0761ms total)
T6650 001:425 JLINK_WriteReg(R13 (SP), 0x20001000)  returns 0x00 (0000ms, 0761ms total)
T6650 001:425 JLINK_WriteReg(R14, 0x20000001)  returns 0x00 (0000ms, 0761ms total)
T6650 001:425 JLINK_WriteReg(R15 (PC), 0x20000108)  returns 0x00 (0000ms, 0761ms total)
T6650 001:425 JLINK_WriteReg(XPSR, 0x01000000)  returns 0x00 (0000ms, 0761ms total)
T6650 001:425 JLINK_WriteReg(MSP, 0x20001000)  returns 0x00 (0000ms, 0761ms total)
T6650 001:425 JLINK_WriteReg(PSP, 0x20001000)  returns 0x00 (0000ms, 0761ms total)
T6650 001:425 JLINK_WriteReg(CFBP, 0x00000000)  returns 0x00 (0000ms, 0761ms total)
T6650 001:425 JLINK_SetBPEx(Addr = 0x20000000, Type = 0xFFFFFFF2)  returns 0x0000000A (0000ms, 0761ms total)
T6650 001:425 JLINK_Go() -- CPU_ReadMem(4 bytes @ 0xE0001000) (0002ms, 0763ms total)
T6650 001:427 JLINK_IsHalted()  returns FALSE (0001ms, 0764ms total)
T6650 001:431 JLINK_IsHalted()  returns FALSE (0000ms, 0763ms total)
T6650 001:433 JLINK_IsHalted() -- CPU_ReadMem(2 bytes @ 0x20000000)  returns TRUE (0003ms, 0766ms total)
T6650 001:436 JLINK_ReadReg(R15 (PC))  returns 0x20000000 (0000ms, 0763ms total)
T6650 001:436 JLINK_ClrBPEx(BPHandle = 0x0000000A)  returns 0x00 (0000ms, 0763ms total)
T6650 001:436 JLINK_ReadReg(R0)  returns 0x00000000 (0000ms, 0763ms total)
T6650 001:437 JLINK_WriteMem(0x20000180, 0x0400 Bytes, ...) - Data: 22 68 01 46 10 46 F0 E7 70 47 00 00 F0 B5 87 B0 ... -- CPU_WriteMem(1024 bytes @ 0x20000180)  returns 0x400 (0012ms, 0775ms total)
T6650 001:449 JLINK_WriteReg(R0, 0x08001400)  returns 0x00 (0000ms, 0775ms total)
T6650 001:449 JLINK_WriteReg(R1, 0x00000400)  returns 0x00 (0000ms, 0775ms total)
T6650 001:449 JLINK_WriteReg(R2, 0x20000180)  returns 0x00 (0000ms, 0775ms total)
T6650 001:449 JLINK_WriteReg(R3, 0x00000000)  returns 0x00 (0000ms, 0775ms total)
T6650 001:449 JLINK_WriteReg(R4, 0x00000000)  returns 0x00 (0000ms, 0775ms total)
T6650 001:449 JLINK_WriteReg(R5, 0x00000000)  returns 0x00 (0000ms, 0775ms total)
T6650 001:449 JLINK_WriteReg(R6, 0x00000000)  returns 0x00 (0000ms, 0775ms total)
T6650 001:449 JLINK_WriteReg(R7, 0x00000000)  returns 0x00 (0000ms, 0775ms total)
T6650 001:449 JLINK_WriteReg(R8, 0x00000000)  returns 0x00 (0000ms, 0775ms total)
T6650 001:449 JLINK_WriteReg(R9, 0x2000017C)  returns 0x00 (0000ms, 0775ms total)
T6650 001:449 JLINK_WriteReg(R10, 0x00000000)  returns 0x00 (0000ms, 0775ms total)
T6650 001:449 JLINK_WriteReg(R11, 0x00000000)  returns 0x00 (0000ms, 0775ms total)
T6650 001:449 JLINK_WriteReg(R12, 0x00000000)  returns 0x00 (0000ms, 0775ms total)
T6650 001:449 JLINK_WriteReg(R13 (SP), 0x20001000)  returns 0x00 (0000ms, 0775ms total)
T6650 001:449 JLINK_WriteReg(R14, 0x20000001)  returns 0x00 (0000ms, 0775ms total)
T6650 001:449 JLINK_WriteReg(R15 (PC), 0x20000108)  returns 0x00 (0000ms, 0775ms total)
T6650 001:449 JLINK_WriteReg(XPSR, 0x01000000)  returns 0x00 (0000ms, 0775ms total)
T6650 001:449 JLINK_WriteReg(MSP, 0x20001000)  returns 0x00 (0000ms, 0775ms total)
T6650 001:449 JLINK_WriteReg(PSP, 0x20001000)  returns 0x00 (0000ms, 0775ms total)
T6650 001:449 JLINK_WriteReg(CFBP, 0x00000000)  returns 0x00 (0000ms, 0775ms total)
T6650 001:449 JLINK_SetBPEx(Addr = 0x20000000, Type = 0xFFFFFFF2)  returns 0x0000000B (0000ms, 0775ms total)
T6650 001:449 JLINK_Go() -- CPU_ReadMem(4 bytes @ 0xE0001000) (0002ms, 0777ms total)
T6650 001:451 JLINK_IsHalted()  returns FALSE (0001ms, 0778ms total)
T6650 001:454 JLINK_IsHalted()  returns FALSE (0000ms, 0777ms total)
T6650 001:456 JLINK_IsHalted() -- CPU_ReadMem(2 bytes @ 0x20000000)  returns TRUE (0003ms, 0780ms total)
T6650 001:459 JLINK_ReadReg(R15 (PC))  returns 0x20000000 (0000ms, 0777ms total)
T6650 001:459 JLINK_ClrBPEx(BPHandle = 0x0000000B)  returns 0x00 (0000ms, 0777ms total)
T6650 001:459 JLINK_ReadReg(R0)  returns 0x00000000 (0000ms, 0777ms total)
T6650 001:460 JLINK_WriteMem(0x20000180, 0x0400 Bytes, ...) - Data: 00 43 43 64 20 68 03 6A 0B 42 06 D1 01 6A 11 42 ... -- CPU_WriteMem(1024 bytes @ 0x20000180)  returns 0x400 (0012ms, 0789ms total)
T6650 001:472 JLINK_WriteReg(R0, 0x08001800)  returns 0x00 (0000ms, 0789ms total)
T6650 001:472 JLINK_WriteReg(R1, 0x00000400)  returns 0x00 (0000ms, 0789ms total)
T6650 001:472 JLINK_WriteReg(R2, 0x20000180)  returns 0x00 (0000ms, 0789ms total)
T6650 001:472 JLINK_WriteReg(R3, 0x00000000)  returns 0x00 (0000ms, 0789ms total)
T6650 001:472 JLINK_WriteReg(R4, 0x00000000)  returns 0x00 (0000ms, 0789ms total)
T6650 001:472 JLINK_WriteReg(R5, 0x00000000)  returns 0x00 (0000ms, 0789ms total)
T6650 001:472 JLINK_WriteReg(R6, 0x00000000)  returns 0x00 (0000ms, 0789ms total)
T6650 001:472 JLINK_WriteReg(R7, 0x00000000)  returns 0x00 (0000ms, 0789ms total)
T6650 001:472 JLINK_WriteReg(R8, 0x00000000)  returns 0x00 (0000ms, 0789ms total)
T6650 001:472 JLINK_WriteReg(R9, 0x2000017C)  returns 0x00 (0000ms, 0789ms total)
T6650 001:472 JLINK_WriteReg(R10, 0x00000000)  returns 0x00 (0000ms, 0789ms total)
T6650 001:472 JLINK_WriteReg(R11, 0x00000000)  returns 0x00 (0000ms, 0789ms total)
T6650 001:472 JLINK_WriteReg(R12, 0x00000000)  returns 0x00 (0000ms, 0789ms total)
T6650 001:472 JLINK_WriteReg(R13 (SP), 0x20001000)  returns 0x00 (0000ms, 0789ms total)
T6650 001:472 JLINK_WriteReg(R14, 0x20000001)  returns 0x00 (0000ms, 0789ms total)
T6650 001:472 JLINK_WriteReg(R15 (PC), 0x20000108)  returns 0x00 (0000ms, 0789ms total)
T6650 001:472 JLINK_WriteReg(XPSR, 0x01000000)  returns 0x00 (0000ms, 0789ms total)
T6650 001:472 JLINK_WriteReg(MSP, 0x20001000)  returns 0x00 (0000ms, 0789ms total)
T6650 001:472 JLINK_WriteReg(PSP, 0x20001000)  returns 0x00 (0000ms, 0789ms total)
T6650 001:472 JLINK_WriteReg(CFBP, 0x00000000)  returns 0x00 (0000ms, 0789ms total)
T6650 001:472 JLINK_SetBPEx(Addr = 0x20000000, Type = 0xFFFFFFF2)  returns 0x0000000C (0000ms, 0789ms total)
T6650 001:472 JLINK_Go() -- CPU_ReadMem(4 bytes @ 0xE0001000) (0002ms, 0791ms total)
T6650 001:474 JLINK_IsHalted()  returns FALSE (0001ms, 0792ms total)
T6650 001:477 JLINK_IsHalted()  returns FALSE (0000ms, 0791ms total)
T6650 001:479 JLINK_IsHalted() -- CPU_ReadMem(2 bytes @ 0x20000000)  returns TRUE (0003ms, 0794ms total)
T6650 001:482 JLINK_ReadReg(R15 (PC))  returns 0x20000000 (0000ms, 0791ms total)
T6650 001:482 JLINK_ClrBPEx(BPHandle = 0x0000000C)  returns 0x00 (0000ms, 0791ms total)
T6650 001:482 JLINK_ReadReg(R0)  returns 0x00000000 (0000ms, 0791ms total)
T6650 001:483 JLINK_WriteMem(0x20000180, 0x0400 Bytes, ...) - Data: C5 E9 06 49 2C 62 28 46 6C 62 FE F7 A1 FD 08 B1 ... -- CPU_WriteMem(1024 bytes @ 0x20000180)  returns 0x400 (0013ms, 0804ms total)
T6650 001:496 JLINK_WriteReg(R0, 0x08001C00)  returns 0x00 (0000ms, 0804ms total)
T6650 001:496 JLINK_WriteReg(R1, 0x00000400)  returns 0x00 (0000ms, 0804ms total)
T6650 001:496 JLINK_WriteReg(R2, 0x20000180)  returns 0x00 (0000ms, 0804ms total)
T6650 001:496 JLINK_WriteReg(R3, 0x00000000)  returns 0x00 (0000ms, 0804ms total)
T6650 001:496 JLINK_WriteReg(R4, 0x00000000)  returns 0x00 (0000ms, 0804ms total)
T6650 001:496 JLINK_WriteReg(R5, 0x00000000)  returns 0x00 (0000ms, 0804ms total)
T6650 001:496 JLINK_WriteReg(R6, 0x00000000)  returns 0x00 (0000ms, 0804ms total)
T6650 001:496 JLINK_WriteReg(R7, 0x00000000)  returns 0x00 (0000ms, 0804ms total)
T6650 001:496 JLINK_WriteReg(R8, 0x00000000)  returns 0x00 (0000ms, 0804ms total)
T6650 001:496 JLINK_WriteReg(R9, 0x2000017C)  returns 0x00 (0000ms, 0804ms total)
T6650 001:496 JLINK_WriteReg(R10, 0x00000000)  returns 0x00 (0000ms, 0804ms total)
T6650 001:496 JLINK_WriteReg(R11, 0x00000000)  returns 0x00 (0000ms, 0804ms total)
T6650 001:496 JLINK_WriteReg(R12, 0x00000000)  returns 0x00 (0000ms, 0804ms total)
